!Agilent Technologies,N5242A,MY49421580,A.09.80.15
!Agilent N5242A: A.09.80.15
!Date: Wednesday, November 24, 2021 03:28:57
!Correction: S11(Full 2 Port(1,2)) 
!S21(Full 2 Port(1,2)) 
!S12(Full 2 Port(1,2)) 
!S22(Full 2 Port(1,2)) 
!S2P File: Measurements: S11, S21, S12, S22:
# Hz S  RI   R 50
10000000 0.99856871 -0.0047351196 0.00011140892 0.0043788152 0.00029450972 0.0049490063 0.99592626 -0.0040122089
10998333.333333 0.99695414 -0.0040626242 -5.633432e-005 0.0043595014 0.0013202264 0.0044475608 0.99644017 -0.0047906004
11996666.666667 0.99839258 -0.0050619398 -0.00015628162 0.0046804724 0.00023038874 0.0052993107 0.99628913 -0.0042604483
12995000 0.99744475 -0.0064865584 -7.6495213e-005 0.0061159804 0.00070146332 0.0059339078 0.99678117 -0.0055139731
13993333.333333 0.99743205 -0.0064250948 -9.1715643e-005 0.0057730498 0.00029701652 0.0055306498 0.99619406 -0.0067553152
14991666.666667 0.99828732 -0.0071817636 0.00019759158 0.0059657036 -9.6861717e-005 0.0060842484 0.99670041 -0.0068126079
15990000 0.99758893 -0.0067629726 -4.6354238e-005 0.0075660199 0.00079403381 0.0067926901 0.99719185 -0.0070540612
16988333.333333 0.99768555 -0.0066671669 1.6016553e-005 0.0072730519 5.8209942e-005 0.006643937 0.99638194 -0.0069539966
17986666.666667 0.99746269 -0.0079909023 -0.00023489969 0.0081945369 0.00039364427 0.0081765493 0.99649823 -0.0075724986
18985000 0.99793208 -0.0082660774 -1.9323286e-005 0.0081249913 0.00012805425 0.0080112424 0.99721158 -0.0078703696
19983333.333333 0.99770623 -0.008879004 0.00035552279 0.0081412001 2.247068e-005 0.0086209299 0.99592119 -0.0085220812
20981666.666667 0.99778038 -0.0093650445 -0.00011646692 0.0089859059 -7.5907948e-005 0.0090700099 0.99648881 -0.0091049522
21980000 0.99748504 -0.009261949 0.00024157079 0.0093103647 0.00048228187 0.0092241038 0.99589807 -0.010109482
22978333.333333 0.99806422 -0.010516265 0.00024668805 0.0099009639 0.00049514539 0.010032458 0.99694115 -0.010070559
23976666.666667 0.99731553 -0.011007991 -0.00015179625 0.010273068 0.0004309747 0.010312349 0.99608374 -0.010465412
24975000 0.99760783 -0.010589316 0.00014558526 0.010832002 -1.5070857e-005 0.010667443 0.99595165 -0.011438669
25973333.333333 0.99775368 -0.011064347 1.0940828e-005 0.011050487 0.00011582985 0.011317761 0.99633342 -0.011145329
26971666.666667 0.99767518 -0.01161567 9.1539223e-005 0.011879492 0.00024165543 0.011464248 0.99635315 -0.011881445
27970000 0.99780405 -0.012125041 -4.6512519e-005 0.011628926 0.00030226714 0.011884205 0.99661309 -0.012602038
28968333.333333 0.99770039 -0.012789714 0.00034471598 0.012448132 0.00035115777 0.012782914 0.99654311 -0.012566734
29966666.666667 0.99756855 -0.013074298 0.00051934109 0.01273515 0.00041184784 0.012426726 0.99684042 -0.013252988
30965000 0.9979279 -0.013082728 0.00012469213 0.013087765 0.00032902195 0.012946196 0.99650484 -0.013511459
31963333.333333 0.99751031 -0.013749309 0.00029859407 0.013719687 0.00038855505 0.013644593 0.99684614 -0.014136163
32961666.666667 0.99794364 -0.014293962 0.00015836151 0.013846388 0.00031995474 0.013999656 0.99644732 -0.014336539
33960000 0.99790412 -0.014428198 0.00021575522 0.014490873 0.00019214657 0.014497721 0.99657404 -0.014962422
34958333.333333 0.99791378 -0.014907238 0.00024759604 0.014967123 0.00062791863 0.015161484 0.99624348 -0.015483024
35956666.666667 0.99758971 -0.015354424 0.00023073798 0.015243396 0.00013334723 0.015455851 0.99664772 -0.015711101
36955000 0.99770623 -0.016182598 0.00031012163 0.015750822 0.00025040196 0.015765343 0.99674141 -0.01611032
37953333.333333 0.99770582 -0.016254405 0.00039705745 0.016077213 0.00031374011 0.016210102 0.99652505 -0.016607616
38951666.666667 0.99763238 -0.01708317 0.00022716812 0.016528841 0.00051580067 0.016708255 0.99639773 -0.016801052
39950000 0.99775851 -0.017272312 0.00034630173 0.016922008 0.00036341965 0.01706042 0.99640858 -0.017184179
40948333.333333 0.9977833 -0.017707633 0.00049032166 0.017547503 0.00052370032 0.017571345 0.99639088 -0.018117225
41946666.666667 0.99751288 -0.017998453 0.00032974998 0.017928325 0.00046842452 0.017936772 0.99637306 -0.018309288
42945000 0.99766254 -0.018521285 0.00039711219 0.018181037 0.00037681684 0.01840435 0.99676538 -0.018643506
43943333.333333 0.99765807 -0.01872378 0.00050554564 0.018745748 0.00040258135 0.018875159 0.99663228 -0.01897759
44941666.666667 0.99776983 -0.019502698 0.00051732856 0.01918418 0.00049008761 0.019146292 0.99664021 -0.019599009
45940000 0.99745709 -0.019602848 0.00036170098 0.019692751 0.00050482224 0.019523211 0.9962905 -0.020230047
46938333.333333 0.99736637 -0.020120716 0.00052872533 0.019992381 0.00056394894 0.020064197 0.99646193 -0.020150041
47936666.666667 0.99742776 -0.020742737 0.00065650686 0.020440089 0.00053541083 0.020375639 0.99669033 -0.020665901
48935000 0.99753702 -0.021195466 0.00062207994 0.02081747 0.00077452982 0.020946268 0.9964928 -0.021426044
49933333.333333 0.99738324 -0.021461369 0.00058466499 0.021281004 0.00069180911 0.021339513 0.99639863 -0.021386027
50931666.666667 0.99738699 -0.021956006 0.00074611203 0.021783514 0.00068059529 0.021897422 0.9963876 -0.021985494
51930000 0.9974671 -0.022263879 0.00072882843 0.022244383 0.00061560742 0.022154273 0.99630237 -0.022261709
52928333.333333 0.99754459 -0.023048824 0.000595688 0.022613356 0.00079101126 0.022569938 0.99635577 -0.022832757
53926666.666667 0.99754113 -0.023592846 0.00067624438 0.022894982 0.00066219422 0.022969315 0.99670225 -0.023731546
54925000 0.99723613 -0.024002193 0.00087243808 0.023505671 0.00083822245 0.02343067 0.99631792 -0.024208169
55923333.333333 0.99742573 -0.024535192 0.00081980531 0.023834607 0.00058412843 0.023817444 0.99633992 -0.024470964
56921666.666667 0.9973672 -0.024904057 0.00088143052 0.024331298 0.00082310813 0.024243504 0.99624562 -0.024828097
57920000 0.99756193 -0.025344994 0.0010827304 0.024635714 0.00078695163 0.02483492 0.99639392 -0.025456317
58918333.333333 0.99713552 -0.025958648 0.0010191951 0.025099425 0.00089703733 0.025013808 0.996176 -0.025868079
59916666.666667 0.99745083 -0.026363043 0.00087774178 0.025497679 0.00090122898 0.025580067 0.99648428 -0.026297964
60915000 0.99737144 -0.026831524 0.00096712797 0.02610914 0.0006905786 0.025886899 0.99614036 -0.026796972
61913333.333333 0.99737763 -0.027217004 0.0012597848 0.026291357 0.0008913778 0.02633482 0.99606109 -0.027111745
62911666.666667 0.99709481 -0.027617348 0.0010301581 0.02663962 0.00096831197 0.026744673 0.99614203 -0.027546544
63910000 0.99729639 -0.028257405 0.0010006332 0.027317218 0.0012752624 0.027384309 0.99623358 -0.028055567
64908333.333333 0.99717319 -0.028566692 0.0012135509 0.027609378 0.0011167034 0.027716693 0.99658823 -0.028168552
65906666.666667 0.99702042 -0.028721245 0.0011520126 0.028050818 0.0011156574 0.027899161 0.99615312 -0.028450962
66905000 0.99695897 -0.029369006 0.0011516763 0.028411943 0.0012071013 0.028317461 0.99632186 -0.029207751
67903333.333333 0.99706411 -0.029783657 0.0011638206 0.028872738 0.001147859 0.028922262 0.99597573 -0.029723808
68901666.666667 0.99678153 -0.030198041 0.0013408575 0.029355297 0.0013735144 0.029362591 0.99615133 -0.030205181
69900000 0.99719423 -0.030558521 0.0013176262 0.029727459 0.0011275406 0.029700745 0.99659359 -0.030328896
70898333.333333 0.99725801 -0.030886915 0.0014158119 0.030189794 0.0011883453 0.030178102 0.99590605 -0.030885631
71896666.666667 0.99692583 -0.031391032 0.0012216647 0.030612737 0.001381247 0.030497424 0.99622703 -0.031489823
72895000 0.99668241 -0.032296196 0.0014295317 0.030872725 0.0013400274 0.031020653 0.99594474 -0.031820945
73893333.333333 0.99669617 -0.032288544 0.0013920015 0.031535003 0.0012546212 0.03136313 0.9959619 -0.032366905
74891666.666667 0.99671966 -0.032737926 0.0015269552 0.031792127 0.001331575 0.031778973 0.99616957 -0.032767076
75890000 0.99693877 -0.033135463 0.0015292451 0.032281995 0.0015260234 0.032418266 0.99585551 -0.033160027
76888333.333333 0.99711496 -0.033566054 0.0014648398 0.032892052 0.0011629633 0.032675233 0.99556428 -0.032910217
77886666.666667 0.9969725 -0.033677485 0.0014950765 0.033102628 0.0014849774 0.03312926 0.99596357 -0.033678249
78885000 0.99684513 -0.034078192 0.0014649384 0.033633251 0.0014018769 0.033565555 0.99568236 -0.034561373
79883333.333333 0.99714381 -0.034497634 0.0014561755 0.033900917 0.0016333606 0.033881128 0.9957782 -0.03451087
80881666.666667 0.99700129 -0.035125982 0.0014328309 0.034341011 0.001588369 0.034423191 0.99554944 -0.035249054
81880000 0.99690193 -0.035397846 0.0015747056 0.034805488 0.001533952 0.034824457 0.9956156 -0.035456438
82878333.333333 0.99694806 -0.036042415 0.0017982268 0.0352735 0.0016791758 0.035283342 0.99587297 -0.036241904
83876666.666667 0.99667913 -0.036533374 0.0017200136 0.035631824 0.0016685186 0.035687868 0.99587476 -0.036598377
84875000 0.99652785 -0.036707669 0.001525784 0.036006261 0.0018701243 0.03615842 0.99556971 -0.037066173
85873333.333333 0.99691021 -0.037099089 0.0019876282 0.036397699 0.0018413691 0.036429737 0.99571133 -0.03737919
86871666.666667 0.99647772 -0.037523683 0.0017595177 0.036871742 0.0018898218 0.036989547 0.99542964 -0.037731498
87870000 0.99636996 -0.037959304 0.0017569201 0.037342202 0.0018939127 0.037370361 0.99544871 -0.038102243
88868333.333333 0.99667788 -0.038553271 0.0019507804 0.03773101 0.0020960644 0.037782148 0.99549311 -0.03844564
89866666.666667 0.9965269 -0.03913467 0.0019394127 0.038195115 0.0019797548 0.038164325 0.99547935 -0.039038789
90865000 0.99652666 -0.039577052 0.0019685617 0.038616888 0.0020771308 0.038564909 0.99552453 -0.039240632
91863333.333333 0.99642771 -0.040073104 0.0020883966 0.039099488 0.0019591516 0.039129894 0.99545151 -0.03985209
92861666.666667 0.99610633 -0.040253554 0.0021536842 0.039348993 0.0020727341 0.039351717 0.99550122 -0.040311426
93860000 0.99618232 -0.040673405 0.002223392 0.039914656 0.0021879126 0.039883476 0.99529439 -0.04074363
94858333.333333 0.99634528 -0.041313075 0.002150866 0.040255908 0.0022974911 0.040335037 0.99551731 -0.041102789
95856666.666667 0.99618244 -0.041564483 0.0021445374 0.040494014 0.0022220598 0.040798232 0.99547905 -0.041590609
96855000 0.99605054 -0.0419675 0.0021437001 0.041083194 0.002241336 0.041149229 0.99519831 -0.04194805
97853333.333333 0.99634981 -0.042392749 0.0021937408 0.041573603 0.0023039111 0.041508883 0.99494094 -0.042384241
98851666.666667 0.99598831 -0.042906862 0.0022854696 0.041970741 0.0023111727 0.042014107 0.9951151 -0.042884652
99850000 0.99590117 -0.043088876 0.0022111761 0.042377874 0.0024154705 0.04241275 0.99489689 -0.043216839
100848333.33333 0.99598062 -0.043685958 0.0024670532 0.042783663 0.0024587389 0.04287884 0.99535239 -0.043766752
101846666.66667 0.99599952 -0.0440869 0.0023546978 0.043175284 0.0024613428 0.043297973 0.99532259 -0.044137232
102845000 0.99578345 -0.044542752 0.002498911 0.043643564 0.0023664942 0.043580141 0.99499846 -0.044340644
103843333.33333 0.99562645 -0.044989347 0.0026009334 0.043998465 0.0026660638 0.044169258 0.99501598 -0.044794604
104841666.66667 0.99571484 -0.045148645 0.0027115485 0.044497851 0.0025125255 0.044569157 0.99482667 -0.045530494
105840000 0.99581736 -0.045713443 0.0026448765 0.044976033 0.0026449997 0.045001823 0.99509782 -0.045754768
106838333.33333 0.9956969 -0.046016496 0.0025666431 0.045254827 0.0028465714 0.045330755 0.99491596 -0.04635692
107836666.66667 0.99564475 -0.046665404 0.0028229209 0.045808099 0.0026264531 0.045659512 0.99465466 -0.046611056
108835000 0.99571645 -0.046823531 0.0027435136 0.046284314 0.0027217646 0.046251424 0.99516511 -0.047181841
109833333.33333 0.99579793 -0.047542911 0.0026870063 0.046548445 0.0029129249 0.046479151 0.99482274 -0.047674138
110831666.66667 0.9955439 -0.047632214 0.0027821786 0.046897415 0.002736259 0.047188014 0.99474692 -0.047610112
111830000 0.99548376 -0.048312247 0.0028156231 0.047392905 0.0029228332 0.047654506 0.99463058 -0.048078295
112828333.33333 0.99570841 -0.048557412 0.0028742424 0.047872547 0.0028884343 0.047893483 0.99486476 -0.048848849
113826666.66667 0.99550545 -0.049251288 0.0030496789 0.048146594 0.003102751 0.048104566 0.99457353 -0.049348809
114825000 0.99542296 -0.049351767 0.0030066529 0.048672028 0.0031228368 0.04887389 0.99507374 -0.049604308
115823333.33333 0.99527961 -0.050107185 0.0030868012 0.0490066 0.0031856352 0.049112186 0.99462211 -0.04986969
116821666.66667 0.99539798 -0.050258785 0.0030606566 0.04942923 0.0030590806 0.049534135 0.99438542 -0.050272435
117820000 0.99514651 -0.050824776 0.003265575 0.049843907 0.0031790317 0.04977461 0.99456573 -0.050732762
118818333.33333 0.99510032 -0.05132835 0.0032571082 0.050265722 0.0033496344 0.050351236 0.9945845 -0.051296171
119816666.66667 0.99518174 -0.051797632 0.0033215871 0.050651878 0.0033023935 0.050858583 0.99422365 -0.051638819
120815000 0.99511927 -0.052220039 0.0032470264 0.051098701 0.0034699091 0.051119447 0.99464983 -0.05200867
121813333.33333 0.99454689 -0.052634466 0.0033378927 0.051566795 0.0035037945 0.051619794 0.99416631 -0.052492488
122811666.66667 0.99496752 -0.05303384 0.0035335778 0.051851165 0.0033769119 0.052024357 0.99425316 -0.052795809
123810000 0.99513143 -0.053376403 0.0035614625 0.052441891 0.0034637542 0.052542362 0.99391681 -0.053215314
124808333.33333 0.99503022 -0.053732615 0.0035629158 0.052801564 0.0035194121 0.052904077 0.99427676 -0.053606451
125806666.66667 0.99473935 -0.054186843 0.0036447225 0.053161565 0.0036636582 0.05321233 0.99386162 -0.054195076
126805000 0.99475563 -0.054403171 0.0036903636 0.053680763 0.0036677602 0.053655513 0.99421942 -0.054802857
127803333.33333 0.99491292 -0.055004109 0.0035970428 0.053988017 0.0035844736 0.054077122 0.99399966 -0.055122867
128801666.66667 0.99472892 -0.055376917 0.0036508904 0.054451674 0.0038098644 0.054540392 0.99382907 -0.055550344
129800000 0.99453425 -0.055889834 0.0037744702 0.054915193 0.0037760099 0.054977901 0.99396622 -0.056033313
130798333.33333 0.99474633 -0.056434676 0.0037663467 0.055368349 0.0038767937 0.055385131 0.99393439 -0.056365803
131796666.66667 0.99454755 -0.056843102 0.003839321 0.055811323 0.0038091224 0.05580027 0.99386263 -0.056905188
132795000 0.99458027 -0.056853458 0.003928653 0.056107242 0.0039637601 0.056214668 0.99376839 -0.057093594
133793333.33333 0.99446172 -0.057520207 0.0039844955 0.056617886 0.0040558516 0.056596369 0.99370664 -0.057462554
134791666.66667 0.99450296 -0.057990059 0.0039623501 0.056949113 0.0041115503 0.057075575 0.99380249 -0.057911824
135790000 0.99460983 -0.058574907 0.004210107 0.057389501 0.0040955907 0.057371773 0.99368471 -0.058508094
136788333.33333 0.99422532 -0.058932621 0.004095519 0.05775094 0.0041926028 0.057842016 0.99341667 -0.058852553
137786666.66667 0.99421501 -0.059246711 0.0041276361 0.058236357 0.0042752163 0.058370702 0.99326092 -0.059305236
138785000 0.99434865 -0.05949983 0.0041750218 0.058771249 0.0043225102 0.058760978 0.9933356 -0.05992372
139783333.33333 0.99430054 -0.060055166 0.0044028969 0.05897364 0.0043467907 0.059126388 0.99337661 -0.060155727
140781666.66667 0.99409586 -0.060502335 0.0044442993 0.059478886 0.0044611883 0.059577208 0.99313486 -0.060724001
141780000 0.99384308 -0.060820628 0.004511287 0.059924707 0.0044697351 0.059909876 0.99319464 -0.061220568
142778333.33333 0.99422598 -0.061502289 0.0044586495 0.060325913 0.0045168046 0.060347922 0.99329156 -0.061174508
143776666.66667 0.99387354 -0.061890602 0.004544518 0.060696449 0.0045869378 0.0607084 0.99296236 -0.061921377
144775000 0.99399775 -0.062197808 0.0045625702 0.061156429 0.0046497593 0.061222605 0.99306953 -0.062332738
145773333.33333 0.9936589 -0.062438734 0.0046736039 0.061512467 0.0047047716 0.061655905 0.99308437 -0.062673815
146771666.66667 0.99413395 -0.062959 0.0049103717 0.062019639 0.0047608539 0.062177431 0.99279279 -0.063112475
147770000 0.99371189 -0.06365329 0.0047388934 0.062450074 0.0048945844 0.062537633 0.99260837 -0.063655749
148768333.33333 0.99375182 -0.063822851 0.0048132739 0.062989593 0.0048503177 0.063097589 0.99270493 -0.064070664
149766666.66667 0.99329603 -0.064247474 0.004904388 0.063438885 0.0050551631 0.063301258 0.99248648 -0.064763084
150765000 0.99331981 -0.064707056 0.0051379073 0.063666128 0.0050389376 0.06377466 0.99258685 -0.064831071
151763333.33333 0.99370801 -0.065318495 0.0050131581 0.064312622 0.0052384306 0.064202152 0.99267256 -0.065258309
152761666.66667 0.99350595 -0.06528005 0.0050581936 0.064416997 0.0052956077 0.06458547 0.99272704 -0.065487556
153760000 0.9931947 -0.065883003 0.0052251737 0.064937592 0.0052897916 0.065003164 0.99240655 -0.066609792
154758333.33333 0.99328679 -0.066147983 0.0052326112 0.065359257 0.0053196889 0.065287955 0.99251217 -0.066097885
155756666.66667 0.9930827 -0.066804983 0.0053084507 0.065817334 0.0053258478 0.065921053 0.99234617 -0.06681674
156755000 0.99289608 -0.06710954 0.0053635091 0.066108271 0.005285895 0.066207305 0.99246514 -0.067220144
157753333.33333 0.99301773 -0.067688622 0.0055144192 0.066640638 0.0056957291 0.066621333 0.99205333 -0.067994945
158751666.66667 0.99298459 -0.068108484 0.0056813024 0.067095168 0.0054916907 0.067125902 0.99260372 -0.068417326
159750000 0.99269724 -0.068551056 0.0055024959 0.067479953 0.0055154888 0.067565836 0.99202108 -0.068564229
160748333.33333 0.99310708 -0.069318213 0.0055948147 0.067845494 0.0056701689 0.06785088 0.99187452 -0.069283202
161746666.66667 0.99312735 -0.069303982 0.005841074 0.068381175 0.0057528457 0.068283215 0.99192291 -0.069691174
162745000 0.99272627 -0.069454215 0.0057372279 0.06881465 0.005710138 0.068803221 0.99176574 -0.069920234
163743333.33333 0.99267143 -0.07033895 0.0058589312 0.069036596 0.0059392131 0.069191523 0.99172109 -0.070212163
164741666.66667 0.99263513 -0.070408009 0.0058921883 0.069465727 0.0058824983 0.069521792 0.99185473 -0.071239643
165740000 0.99276829 -0.070874289 0.0058912924 0.069982275 0.0060887509 0.069942109 0.99154556 -0.071143433
166738333.33333 0.9921357 -0.071525872 0.005982704 0.070391923 0.0060873288 0.070398778 0.99145067 -0.071718961
167736666.66667 0.9924925 -0.071718469 0.0061560897 0.070826896 0.0061037201 0.070836768 0.99164855 -0.072085321
168735000 0.99225879 -0.071951702 0.006129276 0.071266957 0.0062709837 0.071270823 0.99134183 -0.072298087
169733333.33333 0.99220133 -0.072600566 0.0062788879 0.07149566 0.0062599918 0.071699463 0.99136353 -0.073162347
170731666.66667 0.99255276 -0.073162578 0.0064368211 0.072121978 0.0063626855 0.072050802 0.99162656 -0.073174268
171730000 0.99234676 -0.07361044 0.0064721517 0.072237909 0.0066286405 0.072451338 0.9913041 -0.074222639
172728333.33333 0.99206924 -0.073922433 0.0064178812 0.072980508 0.0065326137 0.073001273 0.99135983 -0.07403776
173726666.66667 0.99247891 -0.074296437 0.0065170298 0.073316179 0.0065022111 0.073471271 0.99129295 -0.074603178
174725000 0.99222469 -0.07491491 0.0066397325 0.073721223 0.0067544454 0.07367453 0.99060649 -0.074881777
175723333.33333 0.99184287 -0.075232059 0.0066131651 0.074014939 0.0067437775 0.074243464 0.99094599 -0.075604819
176721666.66667 0.99172157 -0.075563975 0.0068558631 0.074357621 0.0068954485 0.074574448 0.9906528 -0.076036774
177720000 0.9918015 -0.076081119 0.0067418441 0.074798115 0.0068092314 0.075093269 0.99119443 -0.076192893
178718333.33333 0.99196351 -0.076467492 0.0068795593 0.075317353 0.0068832189 0.075454243 0.99081844 -0.076851316
179716666.66667 0.99173319 -0.076761916 0.0069185961 0.075672485 0.0068796682 0.075860791 0.99103379 -0.076928154
180715000 0.99187416 -0.077330522 0.0069976537 0.076158226 0.0070641325 0.076247007 0.99111509 -0.077285826
181713333.33333 0.99174422 -0.077577777 0.0071028857 0.076612517 0.00709642 0.076707818 0.99063236 -0.078107275
182711666.66667 0.99144888 -0.077962421 0.0070656757 0.076953314 0.0071924343 0.077052712 0.9907397 -0.078451253
