!Agilent Technologies,N5242A,MY49421580,A.09.80.15
!Agilent N5242A: A.09.80.15
!Date: Wednesday, November 24, 2021 03:28:25
!Correction: S11(Full 2 Port(1,2)) 
!S21(Full 2 Port(1,2)) 
!S12(Full 2 Port(1,2)) 
!S22(Full 2 Port(1,2)) 
!S2P File: Measurements: S11, S21, S12, S22:
# Hz S  RI   R 50
10000000 0.99869466 -0.0042475816 -0.00057264738 0.0048761689 -0.00037480384 0.0042622513 0.99537522 -0.0040961867
10998333.333333 0.99837703 -0.0045059305 0.00036070278 0.0041219476 -0.00070566102 0.0048087067 0.99604011 -0.0046995124
11996666.666667 0.99899524 -0.0063253497 -0.00039253748 0.004566303 -0.0007559295 0.0047681662 0.996503 -0.0045678047
12995000 0.99758184 -0.0065565715 -0.00016477965 0.0044155288 1.7526365e-005 0.0052437456 0.99659973 -0.0061663347
13993333.333333 0.99713594 -0.0063085752 -0.00067119824 0.0062032272 -7.3159288e-005 0.0057127019 0.99659872 -0.0066733914
14991666.666667 0.99811292 -0.0076342332 -1.3780314e-005 0.0068275719 0.00033927389 0.0062567913 0.99663383 -0.006674354
15990000 0.99767745 -0.0071580932 -0.0004978666 0.0074315644 6.1269406e-005 0.0075962893 0.99689126 -0.0072670127
16988333.333333 0.99778533 -0.007047568 -8.2349536e-005 0.0077946139 0.00010882869 0.006789187 0.99613243 -0.0071022846
17986666.666667 0.99747765 -0.0079401266 0.0003755409 0.0079318937 0.00058224029 0.0078059211 0.99641013 -0.0083652837
18985000 0.99791026 -0.0082867341 0.00014467894 0.00875396 0.00057936687 0.0079273097 0.99710447 -0.0084873438
19983333.333333 0.99807918 -0.0091929128 0.0010036001 0.0082682818 -0.00019786973 0.0083341962 0.99631774 -0.0086025763
20981666.666667 0.99852628 -0.0092086121 0.00035194645 0.0090798195 0.00017898515 0.0089678159 0.99648511 -0.0091161942
21980000 0.99783033 -0.0096198646 0.000266663 0.0096999295 0.00025615856 0.0093332017 0.99603295 -0.00991078
22978333.333333 0.99773765 -0.010245515 -0.00022102015 0.0096152034 -0.00031970607 0.0098929144 0.99655354 -0.0098927682
23976666.666667 0.99728721 -0.010355817 0.0002619306 0.01045074 0.00011729761 0.010244837 0.99579227 -0.01079403
24975000 0.99748456 -0.010949461 -0.00031829107 0.010705645 -0.00011020758 0.010557938 0.99585783 -0.011459554
25973333.333333 0.99776614 -0.011524342 6.1617269e-005 0.011420972 0.00063839421 0.011154225 0.99641329 -0.011499611
26971666.666667 0.99823564 -0.011815617 0.00044454631 0.011727331 0.00017685938 0.011674897 0.99693704 -0.011698521
27970000 0.997908 -0.012118074 0.00030662876 0.011796142 0.00034651574 0.011823606 0.99651784 -0.012202726
28968333.333333 0.99807298 -0.012505272 0.00043271377 0.012415951 0.00027177515 0.012696954 0.99677473 -0.012708019
29966666.666667 0.99776179 -0.013401055 0.00022775913 0.012946179 0.00036804052 0.012882832 0.99665266 -0.013385791
30965000 0.99760836 -0.013538975 0.00045534011 0.013358798 0.00026225793 0.013678583 0.99642646 -0.013217788
31963333.333333 0.99738586 -0.014016503 -4.2124222e-005 0.013570861 4.1824438e-005 0.013714583 0.99654669 -0.014250087
32961666.666667 0.99790978 -0.014483151 0.00034226818 0.014343495 0.00046658015 0.014389949 0.99666262 -0.014338796
33960000 0.99792808 -0.014586747 0.00023586393 0.014683344 0.00046784795 0.014794764 0.99691612 -0.014980747
34958333.333333 0.99767232 -0.015306787 0.00047423469 0.015273382 0.00040846303 0.015132218 0.99649763 -0.015382312
35956666.666667 0.99750292 -0.015765928 0.00030048634 0.015669307 0.00033099807 0.015512157 0.99654186 -0.016158491
36955000 0.9978745 -0.016172033 0.00030273275 0.01594278 0.0003834494 0.015879601 0.99675524 -0.016088847
37953333.333333 0.99773943 -0.016345151 0.00021407426 0.016484037 0.00035360441 0.016385118 0.99664128 -0.016622743
38951666.666667 0.99755001 -0.017302645 0.00035700726 0.016650461 0.00014214276 0.016840098 0.99646133 -0.017184293
39950000 0.9975484 -0.017631063 0.000364904 0.017352808 0.00026911963 0.017298305 0.99669766 -0.017581303
40948333.333333 0.99774426 -0.01765177 0.00059009984 0.017690124 0.0006424032 0.017586906 0.99635959 -0.017937206
41946666.666667 0.99780363 -0.018396232 0.00060416904 0.018186359 0.00062701001 0.018159801 0.99656278 -0.018654017
42945000 0.9975602 -0.0188112 0.00052256155 0.018546995 0.00058609893 0.018689161 0.99673378 -0.018884944
43943333.333333 0.99769694 -0.019465134 0.00044321446 0.018966138 0.0003919325 0.019042557 0.99659443 -0.019179381
44941666.666667 0.99774009 -0.019752301 0.00037554873 0.019505167 0.00063779054 0.019361684 0.99649101 -0.019740244
45940000 0.99741846 -0.020098168 0.00039037317 0.020044498 0.00042064456 0.019932495 0.99644786 -0.020359116
46938333.333333 0.99763632 -0.020279229 0.00057062169 0.020223005 0.00047329743 0.020399692 0.99652719 -0.020610616
47936666.666667 0.99744225 -0.020796914 0.00035625219 0.020693092 0.00058370142 0.020649718 0.99667555 -0.021014813
48935000 0.99736845 -0.021391099 0.00065564521 0.021159835 0.00043771265 0.021168755 0.99639434 -0.021603743
49933333.333333 0.99749696 -0.021975461 0.000797463 0.021551976 0.00061507209 0.021428974 0.99625373 -0.022046896
50931666.666667 0.99739105 -0.022223294 0.00057010725 0.022144562 0.00072302786 0.022032836 0.99657339 -0.022556851
51930000 0.997554 -0.02270584 0.00075810018 0.022416171 0.00075661449 0.022488844 0.99606997 -0.022691326
52928333.333333 0.99770689 -0.023286017 0.00077785552 0.02284437 0.00067397085 0.022793951 0.99643344 -0.023037206
53926666.666667 0.9974696 -0.023759216 0.00090735743 0.023461284 0.00084658701 0.023515061 0.99651653 -0.024496047
54925000 0.99728882 -0.024169754 0.00082588522 0.02394657 0.001047701 0.023758741 0.99641716 -0.024596287
55923333.333333 0.99708241 -0.025116371 0.00056830392 0.024156876 0.00080399972 0.024458574 0.99621612 -0.024742385
56921666.666667 0.99726969 -0.025222937 0.00096052053 0.024447776 0.00094611291 0.024625255 0.99601495 -0.025324093
57920000 0.99724394 -0.025694976 0.00099011417 0.02514651 0.00093640428 0.025010839 0.99656504 -0.025744069
58918333.333333 0.9972713 -0.026278505 0.00076714956 0.0254997 0.00097136898 0.025521761 0.99606025 -0.026239699
59916666.666667 0.99738955 -0.026858691 0.0011374661 0.025975835 0.0012427131 0.025896387 0.99642205 -0.02645185
60915000 0.99729753 -0.027097994 0.00095799757 0.026373859 0.00085908623 0.026267581 0.99624926 -0.02691287
61913333.333333 0.99696076 -0.02774694 0.001021367 0.026879778 0.0012500805 0.026737127 0.99580461 -0.027548341
62911666.666667 0.99704689 -0.027957307 0.00087358675 0.027093835 0.0011106997 0.027261466 0.99622428 -0.027869029
63910000 0.99687463 -0.028356709 0.0011026015 0.027731966 0.0013773814 0.027618945 0.99607617 -0.028505184
64908333.333333 0.99701375 -0.028483285 0.0010620636 0.028158294 0.0010497498 0.028017841 0.99635911 -0.028437229
65906666.666667 0.99694836 -0.029450178 0.0010182493 0.028280677 0.0009951765 0.028455408 0.9960438 -0.029166086
66905000 0.99707741 -0.029644215 0.0011773256 0.029028373 0.0011718137 0.028913988 0.99612254 -0.029369751
67903333.333333 0.99688494 -0.030132079 0.0012431176 0.029397111 0.0013177257 0.029220512 0.99581128 -0.030239079
68901666.666667 0.99694723 -0.030348733 0.0012591877 0.029576195 0.0012087959 0.029693307 0.99608564 -0.030601347
69900000 0.9974134 -0.030889694 0.001278682 0.02997731 0.0012933955 0.030012356 0.99593884 -0.030828848
70898333.333333 0.99726325 -0.031378772 0.0011895391 0.030519525 0.0015377792 0.030510053 0.9960776 -0.031372678
71896666.666667 0.99724579 -0.031620827 0.0014794705 0.031009777 0.0013091924 0.031051591 0.99631959 -0.031741653
72895000 0.99679148 -0.032374021 0.001316203 0.031460904 0.001329297 0.031633444 0.99588925 -0.032387432
73893333.333333 0.99697959 -0.032894 0.0014975271 0.031805288 0.0014019157 0.031791504 0.99565905 -0.032699443
74891666.666667 0.99672848 -0.0332922 0.0012536376 0.032245096 0.001312663 0.032311857 0.99600387 -0.033347014
75890000 0.99695086 -0.033494134 0.0014636464 0.032872491 0.0015440827 0.032721512 0.99585187 -0.033429142
76888333.333333 0.99709588 -0.033969648 0.0016193101 0.033270851 0.0014193222 0.033121146 0.99562132 -0.033414133
77886666.666667 0.99695051 -0.034190495 0.0015837702 0.033596274 0.0015865251 0.033730153 0.99582696 -0.034081522
78885000 0.99675059 -0.034642775 0.0015057909 0.033992361 0.0015854158 0.034088433 0.99571466 -0.035154957
79883333.333333 0.99700916 -0.035002064 0.0016367164 0.0343915 0.0015087138 0.034457363 0.99586242 -0.035060827
80881666.666667 0.99709964 -0.035681855 0.0018367305 0.034911063 0.0017541285 0.034893092 0.99562198 -0.035556689
81880000 0.99696809 -0.036131296 0.0017104431 0.035277113 0.0017938896 0.035216451 0.99571127 -0.035916459
82878333.333333 0.996916 -0.036588479 0.0016320959 0.035700828 0.0017586914 0.03568681 0.99581623 -0.036756851
83876666.666667 0.99646717 -0.036862087 0.0018149525 0.036220685 0.0017711067 0.036084164 0.99571115 -0.036924448
84875000 0.99654788 -0.037468959 0.0018625816 0.036654368 0.001847569 0.036735136 0.99568695 -0.037390564
85873333.333333 0.99651349 -0.03761727 0.0019298301 0.037175376 0.001908376 0.036882401 0.99592817 -0.037861951
86871666.666667 0.99637473 -0.037963953 0.0019181642 0.037468538 0.0018166114 0.037534129 0.99565685 -0.038207784
87870000 0.99617952 -0.038469635 0.0020049734 0.037977163 0.0018463122 0.037880745 0.99554104 -0.038589202
88868333.333333 0.99646783 -0.039056402 0.0019737077 0.038228229 0.0020254231 0.038439427 0.99548012 -0.039176848
89866666.666667 0.99635261 -0.039674848 0.0020135136 0.038713172 0.001910323 0.038785145 0.9955858 -0.039614405
90865000 0.996355 -0.039905474 0.0020176773 0.039019234 0.0019291128 0.039059915 0.99540699 -0.039969031
91863333.333333 0.99635309 -0.040481132 0.0019842244 0.039546654 0.0021117891 0.039648548 0.99520099 -0.040287733
92861666.666667 0.99616814 -0.040935393 0.0021818914 0.039984915 0.0021039285 0.04009432 0.9954232 -0.040987495
93860000 0.99625349 -0.041244898 0.0021449158 0.040292773 0.0020546936 0.040455982 0.99533254 -0.041451845
94858333.333333 0.99623907 -0.041703746 0.0021766822 0.040884089 0.0021973469 0.040918123 0.99541008 -0.041704189
95856666.666667 0.9960202 -0.041948698 0.0022684622 0.041223526 0.002255507 0.041309074 0.99527353 -0.042166375
96855000 0.99604958 -0.042464923 0.002242005 0.041707885 0.002262702 0.041749537 0.99503058 -0.042563435
97853333.333333 0.99609834 -0.043022789 0.0024509365 0.042041939 0.0023586317 0.041987367 0.99490809 -0.042934358
98851666.666667 0.99586213 -0.043355908 0.0023261681 0.042524662 0.002353769 0.042619474 0.99509794 -0.043215543
99850000 0.99558449 -0.043537807 0.0024332807 0.042859893 0.0024402614 0.043077718 0.99504423 -0.043660741
100848333.33333 0.99604833 -0.044113599 0.0024920127 0.043341793 0.0025723795 0.043504432 0.99516881 -0.044200901
101846666.66667 0.99593025 -0.044694804 0.0024637766 0.043850251 0.0026428411 0.043912675 0.99517918 -0.044720076
102845000 0.99577284 -0.044963486 0.002605628 0.044153564 0.0025203745 0.044360511 0.99498051 -0.044863757
103843333.33333 0.99574649 -0.045461778 0.0026179836 0.044658743 0.0025942142 0.044699535 0.99483931 -0.045609232
104841666.66667 0.99562317 -0.045617353 0.0027625505 0.04511223 0.0025847862 0.045121133 0.9948808 -0.046098404
105840000 0.99559432 -0.046221405 0.0027295463 0.045484573 0.0025907119 0.045514621 0.99482578 -0.046582989
106838333.33333 0.99576908 -0.046703201 0.0028197744 0.045867268 0.0028696118 0.046009921 0.9948464 -0.046845183
107836666.66667 0.99560052 -0.046892621 0.0026774248 0.046254363 0.0027980669 0.04657536 0.99446136 -0.047008604
108835000 0.99563617 -0.047585566 0.0028096382 0.046807468 0.0029817203 0.046977356 0.99522835 -0.047883186
109833333.33333 0.99555767 -0.048131239 0.0029403456 0.047239415 0.0027948329 0.047294829 0.9946866 -0.048129
110831666.66667 0.99563676 -0.048301432 0.0028865573 0.047719497 0.0030258447 0.047697671 0.99493891 -0.048450883
111830000 0.99534494 -0.048860483 0.0030787925 0.048009235 0.0030009232 0.048154064 0.99451131 -0.048743922
112828333.33333 0.99540704 -0.049293622 0.0029382179 0.048622765 0.0029095998 0.048579276 0.99473417 -0.049492124
113826666.66667 0.99523759 -0.049581934 0.0031834901 0.04887734 0.0029903511 0.0489344 0.99446708 -0.049830049
114825000 0.99545139 -0.049902748 0.0030688778 0.049269892 0.0030720939 0.049445219 0.99474961 -0.050337464
115823333.33333 0.99534965 -0.050777867 0.0030212568 0.049750932 0.0031394106 0.049781505 0.99479002 -0.050702125
116821666.66667 0.99534643 -0.05114552 0.003134598 0.050182838 0.0031647678 0.050094541 0.99426693 -0.050937761
117820000 0.99520075 -0.05140591 0.0033468907 0.050626848 0.0031650593 0.050716173 0.99453139 -0.051499974
118818333.33333 0.99505335 -0.051764771 0.0032549752 0.051067557 0.0033967558 0.051077295 0.99434489 -0.051846031
119816666.66667 0.99527162 -0.052419223 0.0033924782 0.051420428 0.0034982229 0.051484529 0.99418628 -0.052226368
120815000 0.9948715 -0.052688852 0.0034379857 0.051896561 0.0034671677 0.051912319 0.99442184 -0.052773695
121813333.33333 0.99464363 -0.053202253 0.0035058034 0.052285153 0.0036211929 0.052338354 0.9941569 -0.052981623
122811666.66667 0.99495596 -0.053747248 0.0034837499 0.052665446 0.003475846 0.052715443 0.99430746 -0.053603437
123810000 0.99518347 -0.053969935 0.0034377289 0.053052343 0.003619259 0.053188749 0.99393457 -0.053963061
124808333.33333 0.99504894 -0.054400899 0.0037314577 0.05368438 0.0035572036 0.053600118 0.99422431 -0.05433891
125806666.66667 0.99460101 -0.054622006 0.003634986 0.05409766 0.0037100208 0.054024883 0.99411231 -0.05476189
126805000 0.99469602 -0.05515847 0.0036571804 0.054517657 0.0037456774 0.054554921 0.99402815 -0.055659544
127803333.33333 0.99460942 -0.055628214 0.0037720366 0.054955248 0.0037135303 0.054783706 0.99380928 -0.055761047
128801666.66667 0.99445051 -0.056117848 0.0039595519 0.055266313 0.003828872 0.055293053 0.9936558 -0.056314178
129800000 0.99422842 -0.05658599 0.0038574396 0.055721488 0.0039261435 0.055677995 0.9936046 -0.056934346
130798333.33333 0.99459159 -0.057330672 0.0039335815 0.056167305 0.0039126114 0.05621269 0.99392998 -0.057111353
131796666.66667 0.99431676 -0.057452533 0.0039823996 0.056579825 0.0039282059 0.056560185 0.99373496 -0.057722501
132795000 0.9945063 -0.057676371 0.0040985863 0.056934427 0.0039647003 0.056882426 0.99347168 -0.057928812
133793333.33333 0.99442816 -0.058356367 0.0041323635 0.057377353 0.0040705292 0.057446662 0.9936018 -0.058290619
134791666.66667 0.99432868 -0.058749657 0.0041593229 0.057762593 0.0041692583 0.057763234 0.99382287 -0.059015322
135790000 0.99456298 -0.059194069 0.0043580071 0.058288857 0.0042561195 0.058313303 0.99352378 -0.059278894
136788333.33333 0.99430442 -0.059821662 0.0042644166 0.058765698 0.0044331923 0.058651481 0.99339557 -0.05966654
137786666.66667 0.99411988 -0.059905596 0.0042554699 0.059025232 0.0044066515 0.059159882 0.99325073 -0.060208343
138785000 0.9941712 -0.060411684 0.0044074813 0.059497446 0.0043772422 0.059563633 0.99315947 -0.060694162
139783333.33333 0.99423081 -0.060780298 0.0044220705 0.059852846 0.0044612763 0.059982233 0.99329525 -0.06094541
140781666.66667 0.99396574 -0.06137871 0.0043966742 0.060316972 0.0045519262 0.06040436 0.9931742 -0.061408482
141780000 0.99384499 -0.06180552 0.0044526677 0.060831778 0.0045632557 0.060794916 0.99300724 -0.062097587
142778333.33333 0.9940033 -0.062167905 0.0045173741 0.061200842 0.0045152837 0.061267957 0.99306929 -0.062211726
143776666.66667 0.99368346 -0.062682249 0.0047492189 0.061528552 0.0047787325 0.061616026 0.9928863 -0.062656619
144775000 0.99393678 -0.062899575 0.0046962965 0.062006563 0.0047508008 0.062027611 0.99271286 -0.063119553
145773333.33333 0.99337679 -0.063503601 0.004828379 0.062381327 0.0048450199 0.062477402 0.9929865 -0.063676596
146771666.66667 0.99370611 -0.063767798 0.0047322423 0.062968604 0.004829451 0.062901691 0.99285877 -0.063904949
147770000 0.99364066 -0.06444519 0.0050593195 0.063535079 0.0049751084 0.063459992 0.99297029 -0.064604081
148768333.33333 0.99353129 -0.06476865 0.0050328667 0.063807875 0.0049929642 0.063819848 0.99275684 -0.065132514
149766666.66667 0.99322903 -0.065177046 0.0048506428 0.064186968 0.0050452938 0.064310871 0.99265862 -0.06528943
150765000 0.99312478 -0.065656148 0.0051014069 0.064597167 0.0052829557 0.06481079 0.99222779 -0.06569767
151763333.33333 0.99346751 -0.06592875 0.0052967602 0.064957403 0.0052390508 0.065052435 0.99247277 -0.066404633
152761666.66667 0.99333227 -0.066496409 0.0053308355 0.065398768 0.0053207041 0.06562864 0.99252659 -0.066465721
153760000 0.99309492 -0.06655506 0.0053887945 0.065924153 0.0053004767 0.065944642 0.99239087 -0.067031108
154758333.33333 0.99328244 -0.06671524 0.0052530114 0.066451073 0.0055072526 0.066364452 0.99259764 -0.067284532
155756666.66667 0.99295503 -0.067799293 0.0054355348 0.066799432 0.0054567163 0.066646062 0.99228698 -0.067943946
156755000 0.9928394 -0.067917503 0.0054636262 0.067052044 0.0055113249 0.067219749 0.99233252 -0.06819097
157753333.33333 0.99281466 -0.06846343 0.0055066566 0.067570575 0.0056680283 0.067616254 0.9920013 -0.068735719
158751666.66667 0.99272561 -0.068970919 0.0055603716 0.067918837 0.0058639017 0.067865521 0.99247801 -0.069421321
159750000 0.99269551 -0.069599099 0.0057970546 0.068375252 0.0057186275 0.068430267 0.99178201 -0.069785342
160748333.33333 0.99290895 -0.069920972 0.0057676733 0.068865716 0.0058614938 0.06891644 0.99166763 -0.070259355
161746666.66667 0.99276668 -0.070030577 0.0059507522 0.069155298 0.0058833244 0.069390193 0.99212062 -0.070641369
162745000 0.99265689 -0.070654489 0.0060261725 0.069791101 0.0059505189 0.069764607 0.99159563 -0.070800394
163743333.33333 0.99252582 -0.071024239 0.0060058483 0.070115827 0.0061061038 0.070181027 0.99107134 -0.071538478
164741666.66667 0.99250966 -0.071334638 0.0060011107 0.070406862 0.0061291093 0.07060989 0.99197686 -0.072228082
165740000 0.9925521 -0.071733139 0.0060802926 0.070959158 0.0062681539 0.071066715 0.99148428 -0.072522067
166738333.33333 0.99213105 -0.072195284 0.0062508723 0.071324758 0.0063195224 0.071417414 0.99155653 -0.072506994
167736666.66667 0.99260217 -0.072276585 0.0063133836 0.071757779 0.0063317525 0.071846142 0.99128008 -0.072924562
168735000 0.99201125 -0.072832786 0.0063626938 0.07222382 0.0064490163 0.072244667 0.99145985 -0.073625445
169733333.33333 0.99200463 -0.073521756 0.0065137087 0.072624229 0.0066160741 0.072834209 0.99122369 -0.073655173
170731666.66667 0.99199873 -0.074015416 0.0064813457 0.073069207 0.0066105705 0.072862506 0.99141324 -0.074137554
171730000 0.99218148 -0.074632175 0.0067001688 0.073518321 0.0065038987 0.073474541 0.99105328 -0.074785665
172728333.33333 0.99195337 -0.074598625 0.0065589976 0.073885567 0.0066548157 0.073966898 0.99116009 -0.074969038
173726666.66667 0.99198544 -0.075065807 0.0067503387 0.074364349 0.006604217 0.074396804 0.99116009 -0.075739555
174725000 0.99177897 -0.075781293 0.0068468768 0.074753463 0.0068164836 0.074700981 0.99082214 -0.075840704
175723333.33333 0.99141276 -0.076001659 0.0068525271 0.075252727 0.0068834601 0.075270072 0.99075258 -0.076582886
176721666.66667 0.99143463 -0.07654164 0.0068602129 0.075464971 0.0069570327 0.075685695 0.99040163 -0.07714355
177720000 0.99155718 -0.076783605 0.0068093669 0.076003492 0.0070944563 0.076050334 0.99123704 -0.077323072
178718333.33333 0.991777 -0.077220187 0.0070227534 0.076509759 0.0070831613 0.076461412 0.99048269 -0.077501073
179716666.66667 0.99145019 -0.0777722 0.0071512372 0.076775283 0.0071180547 0.076853774 0.99089742 -0.078031823
180715000 0.99151176 -0.078030214 0.0072138715 0.077217415 0.0072418819 0.07725773 0.99095505 -0.078575172
181713333.33333 0.99159759 -0.078418806 0.00719911 0.077698089 0.0072143106 0.077742584 0.99049169 -0.079276174
182711666.66667 0.9913004 -0.078851588 0.0072256033 0.07794223 0.0074161673 0.078171864 0.99052173 -0.07952483
