!Agilent Technologies,N5242A,MY49421580,A.09.80.15
!Agilent N5242A: A.09.80.15
!Date: Wednesday, November 24, 2021 03:29:30
!Correction: S11(Full 2 Port(1,2)) 
!S21(Full 2 Port(1,2)) 
!S12(Full 2 Port(1,2)) 
!S22(Full 2 Port(1,2)) 
!S2P File: Measurements: S11, S21, S12, S22:
# Hz S  RI   R 50
10000000 0.99752331 -0.0046365219 -0.00018978662 0.0035713995 -0.00036294817 0.0039029913 0.99535286 -0.0036369623
10998333.333333 0.99740428 -0.005069491 -0.00035784842 0.004698169 0.00066068181 0.0050526611 0.99642879 -0.0041668341
11996666.666667 0.99882764 -0.0060691475 0.0011165605 0.0051154541 -0.00010572618 0.0051167733 0.99673951 -0.0054521421
12995000 0.99762774 -0.0062707649 0.00064874359 0.0057251528 0.00026390963 0.0062081767 0.99618149 -0.0063128639
13993333.333333 0.99670309 -0.0064496696 2.6902346e-005 0.0059715011 -2.6689118e-005 0.0059521501 0.99611408 -0.0062622991
14991666.666667 0.99845499 -0.0072414055 -0.00012643162 0.0060168663 0.00038196059 0.006633155 0.99660373 -0.0068639754
15990000 0.99762183 -0.0065016635 -0.00033228 0.0064503574 -0.00010945014 0.0071792467 0.99656665 -0.007218787
16988333.333333 0.99676698 -0.00700182 9.2692149e-005 0.0072893361 -0.00014351853 0.0075877346 0.99649721 -0.0074137207
17986666.666667 0.99739838 -0.0076606413 -0.00018052309 0.0079435082 0.00025707 0.0077706599 0.9968915 -0.007347275
18985000 0.99788433 -0.0078588026 5.1467418e-005 0.0081572859 0.00064370007 0.0083352597 0.99689394 -0.0082381312
19983333.333333 0.99807769 -0.008648036 -2.6579171e-005 0.0085253939 2.3964487e-005 0.0093810782 0.9969961 -0.0081535066
20981666.666667 0.99753308 -0.0095784506 0.00010998958 0.008832315 -0.00022972442 0.0091575682 0.99628466 -0.0089084795
21980000 0.997967 -0.0095945811 4.5390017e-005 0.0094857113 -5.7168727e-005 0.0092743579 0.99624532 -0.0096498569
22978333.333333 0.99770927 -0.010341252 0.00022035281 0.0097609451 5.6313952e-006 0.0095258094 0.99653286 -0.010081884
23976666.666667 0.99772131 -0.010663611 0.0001333476 0.010117951 0.00022588357 0.010227974 0.99627 -0.010350758
24975000 0.99738431 -0.010667718 0.0001983532 0.010414207 0.00028064029 0.010647371 0.99649179 -0.011139283
25973333.333333 0.99743068 -0.011029895 0.00012644634 0.010591478 0.00044761016 0.011032362 0.99681312 -0.010899269
26971666.666667 0.99819857 -0.011727876 0.00041623626 0.011326013 0.00016840112 0.011647566 0.99650401 -0.012065014
27970000 0.99760401 -0.012074736 0.0006145956 0.01182562 0.00056821434 0.012240181 0.99667913 -0.01234985
28968333.333333 0.99785244 -0.012521107 0.00016220218 0.012377008 0.00021166883 0.012417277 0.9964909 -0.012970564
29966666.666667 0.99780607 -0.013236259 0.0005220059 0.012903116 0.00014033291 0.012965957 0.99660802 -0.01282153
30965000 0.99789631 -0.013222133 3.7454083e-005 0.013099111 0.00033201711 0.013185434 0.99621016 -0.013194013
31963333.333333 0.99726588 -0.013523652 0.00041571932 0.013752502 0.00020024946 0.01368752 0.99676961 -0.013995354
32961666.666667 0.997841 -0.014087964 0.00042301329 0.014228075 0.00054801704 0.013903802 0.99686998 -0.014420112
33960000 0.99771607 -0.014343915 0.00021642276 0.014579172 0.00036045857 0.014643888 0.99685502 -0.014814456
34958333.333333 0.99791527 -0.014905334 0.00039018286 0.014636949 0.00026068065 0.01496116 0.99646193 -0.015097901
35956666.666667 0.99757761 -0.015451916 0.00050337089 0.015352875 0.00025707303 0.015322028 0.99661314 -0.015841559
36955000 0.99788916 -0.015910646 0.00026597988 0.01582242 0.00038090881 0.015712801 0.99679273 -0.016176566
37953333.333333 0.99775046 -0.016298201 0.00043628889 0.015953986 0.0001913156 0.016217493 0.99652559 -0.016379397
38951666.666667 0.99779719 -0.016783468 0.00030550294 0.016704632 0.00034256416 0.01655221 0.99669588 -0.01685643
39950000 0.99754566 -0.017382031 0.00037703876 0.017047916 0.00036889227 0.017072016 0.99642771 -0.01738425
40948333.333333 0.99784374 -0.017433131 0.00050515984 0.017433479 0.00041070874 0.017433142 0.99616766 -0.017829604
41946666.666667 0.99745631 -0.01805684 0.00034538668 0.017884264 0.0004782225 0.017860595 0.99638784 -0.018330524
42945000 0.99761957 -0.018441752 0.00065457798 0.01831937 0.00039429919 0.018219428 0.99668956 -0.018655954
43943333.333333 0.99764591 -0.018784033 0.00042526284 0.018627722 0.00043477313 0.018756161 0.99663574 -0.0189452
44941666.666667 0.99769551 -0.019460388 0.00057649298 0.018972272 0.00054807193 0.018984072 0.99649554 -0.019485947
45940000 0.99732858 -0.019673726 0.00050137576 0.019400571 0.00060326903 0.019524243 0.99642676 -0.020080863
46938333.333333 0.99744433 -0.019943789 0.0004099622 0.019960962 0.00071319169 0.019896202 0.99665874 -0.020335119
47936666.666667 0.997522 -0.020593528 0.00056042458 0.020380067 0.00062361342 0.020484354 0.99648827 -0.020789295
48935000 0.99750608 -0.021013835 0.00052727148 0.020904815 0.00049212488 0.02067049 0.99636686 -0.021147426
49933333.333333 0.99756229 -0.021477135 0.00065758737 0.02109766 0.00043834848 0.021208435 0.99627 -0.021271931
50931666.666667 0.99743634 -0.021821808 0.00062697526 0.021664405 0.00059063477 0.021648968 0.99640542 -0.02207467
51930000 0.99748099 -0.022530247 0.00066140428 0.021853369 0.00059317291 0.022168797 0.99638355 -0.022362832
52928333.333333 0.99759144 -0.02305847 0.00070939685 0.022468626 0.0006396781 0.022457626 0.99640846 -0.022960722
53926666.666667 0.99746579 -0.023338214 0.00072729494 0.022780055 0.00080144953 0.022939224 0.9964956 -0.023900388
54925000 0.99713272 -0.024084428 0.00086526433 0.023462761 0.0010652572 0.023549343 0.99647135 -0.024179684
55923333.333333 0.99732959 -0.024539404 0.00099864497 0.023855362 0.00084047229 0.023877611 0.99631697 -0.024456108
56921666.666667 0.9971928 -0.024675833 0.00082713465 0.02418744 0.00080371823 0.024118435 0.99620223 -0.024951857
57920000 0.99739116 -0.025553634 0.00091740105 0.024359262 0.00083664834 0.024609797 0.99645776 -0.025588801
58918333.333333 0.99774516 -0.025864553 0.00094870012 0.025034882 0.0010638157 0.02489884 0.99645859 -0.025880439
59916666.666667 0.99748999 -0.026102467 0.00089000684 0.025272509 0.0010528527 0.025338585 0.99630159 -0.0261377
60915000 0.99760395 -0.026453124 0.0011012108 0.025892347 0.00086144992 0.025728209 0.99628586 -0.02656102
61913333.333333 0.99697351 -0.027085958 0.00090261881 0.026166253 0.0010102896 0.026455641 0.99627674 -0.027133504
62911666.666667 0.99694222 -0.027440093 0.0010626841 0.026611535 0.0010286341 0.02656756 0.99617076 -0.027274545
63910000 0.99709934 -0.027806312 0.0013589284 0.026999583 0.0010034146 0.027171485 0.99623388 -0.027929112
64908333.333333 0.99682677 -0.028422216 0.0010698077 0.027561979 0.00094215566 0.027634315 0.99628234 -0.027935773
65906666.666667 0.99701256 -0.028917972 0.0011553417 0.027755501 0.001119918 0.028125925 0.99599415 -0.028624648
66905000 0.99703574 -0.029304976 0.0010224009 0.028519496 0.0011674949 0.028371947 0.99619734 -0.029070565
67903333.333333 0.99712259 -0.029700045 0.00092590944 0.028617201 0.001132561 0.028808324 0.99575251 -0.029749334
68901666.666667 0.99683267 -0.029862234 0.0012720522 0.029259708 0.001311754 0.029128999 0.99614656 -0.030145589
69900000 0.99703252 -0.030664431 0.0013172127 0.029514475 0.0011389914 0.029529233 0.99587703 -0.030209091
70898333.333333 0.99720842 -0.030855751 0.0013648863 0.030131562 0.0012045429 0.03016752 0.99580044 -0.030866414
71896666.666667 0.99712902 -0.031365402 0.0012915122 0.030553482 0.0013506901 0.030578636 0.99609238 -0.03146179
72895000 0.99693012 -0.031949878 0.0013532599 0.030636065 0.0014730815 0.030847915 0.99585533 -0.03174993
73893333.333333 0.99689847 -0.032287423 0.0015328053 0.031310514 0.0012973031 0.031391066 0.9960537 -0.032161996
74891666.666667 0.99681991 -0.032662939 0.00130893 0.031640369 0.0014165055 0.031707291 0.9959166 -0.032492824
75890000 0.99684691 -0.032848272 0.0014067764 0.032052852 0.0012847362 0.032167174 0.99589175 -0.032970499
76888333.333333 0.99703014 -0.033628706 0.0015623006 0.032621972 0.0012704764 0.03247958 0.995745 -0.032933515
77886666.666667 0.99690193 -0.033810761 0.0015900839 0.033108976 0.0015815744 0.033018146 0.9956848 -0.033640981
78885000 0.99669325 -0.033842765 0.0015521655 0.033396993 0.0014315279 0.033447713 0.99574214 -0.03438428
79883333.333333 0.9970066 -0.034653068 0.0013590395 0.033812981 0.0017319095 0.033829924 0.99531657 -0.034426659
80881666.666667 0.99715132 -0.035036959 0.0016860543 0.034174565 0.0016588457 0.034296013 0.99560356 -0.035124168
81880000 0.99681425 -0.035532437 0.0016817539 0.034674779 0.0017436893 0.034714881 0.99580199 -0.035328433
82878333.333333 0.99668175 -0.036056969 0.001762891 0.035173394 0.0016521799 0.035072345 0.99570656 -0.036176942
83876666.666667 0.99674171 -0.036375564 0.0016935072 0.035497412 0.0016782874 0.035485487 0.99562246 -0.036197573
84875000 0.99669224 -0.036615007 0.0017834508 0.035859786 0.0017804183 0.035991125 0.99578732 -0.036886487
85873333.333333 0.99660075 -0.037082337 0.0017448784 0.036258981 0.0017423537 0.036359113 0.99567628 -0.03717611
86871666.666667 0.99650055 -0.037580289 0.0018792422 0.036775455 0.0017984869 0.03686801 0.99549443 -0.037632763
87870000 0.99630994 -0.037952386 0.0019628734 0.037129052 0.0018516778 0.037170902 0.99540991 -0.037992291
88868333.333333 0.99656683 -0.038356837 0.00193204 0.037650652 0.0019354824 0.037627976 0.9953329 -0.038517356
89866666.666667 0.99653256 -0.039065234 0.0019508305 0.037975319 0.0020195923 0.038076013 0.99556148 -0.038803365
90865000 0.99648428 -0.039556231 0.0019922708 0.038362138 0.0019137157 0.038565155 0.99548799 -0.03950645
91863333.333333 0.99640203 -0.03997178 0.0019494246 0.038879246 0.0019120649 0.038888313 0.99531764 -0.03955381
92861666.666667 0.99609113 -0.040198881 0.0020346898 0.039274916 0.0019903872 0.039211072 0.99543697 -0.040234108
93860000 0.99633873 -0.040486317 0.0020473436 0.03970886 0.0020601172 0.039602261 0.99528766 -0.040694721
94858333.333333 0.99647403 -0.041120272 0.0020394083 0.04015629 0.0022269371 0.040246952 0.99553967 -0.041061401
95856666.666667 0.99601859 -0.041562483 0.0021497151 0.040532954 0.0020476361 0.040490258 0.99540448 -0.041187361
96855000 0.99621093 -0.041722748 0.0020830401 0.040975377 0.0022783373 0.041050907 0.99523097 -0.041747615
97853333.333333 0.99620718 -0.042308796 0.0023079822 0.041419566 0.0022367593 0.041350678 0.99511278 -0.042209007
98851666.666667 0.99592936 -0.042538803 0.0022745242 0.041676901 0.0022400913 0.041824967 0.99516082 -0.042465758
99850000 0.99596566 -0.042857718 0.0022557427 0.042155601 0.0022583494 0.042186972 0.99496222 -0.043056205
100848333.33333 0.99607897 -0.043481294 0.0023528745 0.042591751 0.0024121371 0.042661961 0.99530512 -0.043565899
101846666.66667 0.9962163 -0.043909591 0.0023231956 0.043093178 0.0023330948 0.043038864 0.99508399 -0.043957192
102845000 0.9958356 -0.04425719 0.0024539966 0.043515995 0.0024512254 0.043447267 0.994914 -0.044183254
103843333.33333 0.99588186 -0.04467357 0.00250623 0.043814842 0.0024683718 0.043970823 0.99485946 -0.044662453
104841666.66667 0.99558616 -0.04504142 0.0024592073 0.044193756 0.0024817761 0.044277761 0.99498314 -0.045388263
105840000 0.995727 -0.045619879 0.0025339569 0.044671986 0.0025794511 0.044827539 0.99496746 -0.045624331
106838333.33333 0.99565417 -0.045659542 0.0025977758 0.045178786 0.0026912028 0.044971228 0.99478751 -0.046093736
107836666.66667 0.99585837 -0.046357028 0.002703029 0.04541564 0.0027933863 0.045586366 0.99452311 -0.046005767
108835000 0.99572819 -0.046833102 0.0028521246 0.045941986 0.0027569816 0.045834426 0.99503058 -0.047054458
109833333.33333 0.99559051 -0.047220126 0.0027004678 0.04648345 0.0027839988 0.046429228 0.99496096 -0.047430273
110831666.66667 0.99541271 -0.047491401 0.0026764534 0.046851318 0.0027285116 0.046822567 0.99490619 -0.047655374
111830000 0.99556619 -0.04803963 0.0029126618 0.047171555 0.002886835 0.04711546 0.9946968 -0.047888558
112828333.33333 0.99563968 -0.048382737 0.0027784251 0.047566641 0.0027730609 0.047620695 0.99461269 -0.048566237
113826666.66667 0.99548268 -0.049020689 0.0030326745 0.047966279 0.0030504477 0.048104718 0.99479425 -0.049155258
114825000 0.9952907 -0.048913293 0.0028712177 0.048437789 0.0029400405 0.048440922 0.99472916 -0.049502429
115823333.33333 0.99522775 -0.049814913 0.0030496209 0.048808135 0.0031092488 0.048865825 0.99466693 -0.04980585
116821666.66667 0.99539268 -0.050378356 0.0030609926 0.049409397 0.0030936794 0.049301255 0.99421245 -0.050282188
117820000 0.99528837 -0.050390001 0.0031083892 0.049712539 0.0030856878 0.049759876 0.99449986 -0.050649248
118818333.33333 0.99518985 -0.050952982 0.0032376652 0.050075602 0.0032914605 0.050127722 0.99440575 -0.050843772
119816666.66667 0.99529171 -0.051537115 0.0033289038 0.050550222 0.0033311599 0.050452106 0.99441111 -0.051366098
120815000 0.99502528 -0.05193799 0.0032393541 0.050876144 0.0031707729 0.050844502 0.99451399 -0.05192484
121813333.33333 0.99486309 -0.052374359 0.0034669545 0.051261317 0.0034431908 0.051375549 0.99427485 -0.052016325
122811666.66667 0.99518526 -0.052737232 0.0033924601 0.051745094 0.0034130954 0.051862672 0.99423873 -0.052659988
123810000 0.99533504 -0.052807119 0.0035410086 0.052039884 0.003380408 0.052317478 0.99422926 -0.052907992
124808333.33333 0.99516928 -0.053594522 0.0035104624 0.052585542 0.0033380976 0.052582841 0.99434155 -0.05324991
125806666.66667 0.99486387 -0.053762812 0.0036433304 0.052986704 0.0036069655 0.053141933 0.99427837 -0.054040186
126805000 0.99485916 -0.054297287 0.0034906529 0.053348251 0.0035128146 0.053484034 0.9942373 -0.054491077
127803333.33333 0.99488986 -0.054781303 0.0036586639 0.053870071 0.0036046363 0.053864613 0.9938944 -0.054820471
128801666.66667 0.99480623 -0.055065069 0.0036274353 0.054206859 0.0038390299 0.054392718 0.9938851 -0.055406328
129800000 0.99466407 -0.055712335 0.0037460923 0.054572139 0.0037914529 0.054840755 0.99377239 -0.055989645
130798333.33333 0.99476016 -0.056238513 0.0038716919 0.05502985 0.0038448267 0.055122022 0.99391621 -0.0561646
131796666.66667 0.99470192 -0.056839261 0.0038597495 0.055556487 0.0039608092 0.055493232 0.99356401 -0.056530546
132795000 0.99451727 -0.056779195 0.0038618464 0.05586211 0.0039783581 0.05588083 0.99358231 -0.057041597
133793333.33333 0.99433094 -0.057459988 0.0039969059 0.056379322 0.0039356644 0.056321863 0.99381244 -0.057394184
134791666.66667 0.99436009 -0.057779249 0.0040120599 0.056709141 0.0040588351 0.056834519 0.9937768 -0.057767726
135790000 0.99436617 -0.058261272 0.0040499261 0.057115577 0.0040132571 0.057294562 0.99379069 -0.058496855
136788333.33333 0.99431461 -0.058924973 0.0042030038 0.057621006 0.0041183429 0.057605017 0.99325645 -0.058544047
137786666.66667 0.99416816 -0.058747828 0.004087456 0.058023795 0.004119074 0.057903804 0.9933511 -0.059091572
138785000 0.99439698 -0.059652049 0.0042931954 0.058398366 0.0042587374 0.0583786 0.99332738 -0.059733544
139783333.33333 0.9944936 -0.059969418 0.0043613161 0.058752559 0.0042509758 0.058891099 0.9934383 -0.059930597
140781666.66667 0.99408549 -0.060177717 0.0043904283 0.059197892 0.0043944926 0.059251674 0.99331743 -0.060299486
141780000 0.99406415 -0.060580883 0.0044291513 0.059698056 0.0044511235 0.059723824 0.9931125 -0.060988721
142778333.33333 0.99429685 -0.061127435 0.0043952032 0.060072321 0.0045382208 0.060129195 0.99320734 -0.061083958
143776666.66667 0.99370331 -0.061584406 0.004467323 0.060359497 0.0045596594 0.060588419 0.99295551 -0.061503753
144775000 0.99388707 -0.061798252 0.0044621532 0.060789734 0.0046583512 0.060914475 0.99309146 -0.062179726
145773333.33333 0.99362242 -0.062290967 0.0045698606 0.061279252 0.004653587 0.061355125 0.99310374 -0.062531993
146771666.66667 0.99364913 -0.062610239 0.0047289571 0.061748173 0.0048002615 0.061799061 0.99304193 -0.062532403
147770000 0.99372834 -0.063522898 0.0048304177 0.062116072 0.004926668 0.062395182 0.99302191 -0.063746743
148768333.33333 0.99376297 -0.063635148 0.0049774558 0.062722169 0.0049104751 0.062676094 0.99284619 -0.064043075
149766666.66667 0.99357837 -0.063848481 0.0049386867 0.062970936 0.0049616746 0.063089266 0.9927212 -0.064553536
150765000 0.99333894 -0.06424877 0.0050138836 0.06335339 0.0049887598 0.063476868 0.99261779 -0.064645737
151763333.33333 0.99365109 -0.064871922 0.0049252501 0.063748285 0.0050108973 0.063860856 0.99286973 -0.064889029
152761666.66667 0.99343437 -0.065233313 0.0049952297 0.064244352 0.005184168 0.064319365 0.99254495 -0.065638274
153760000 0.99330318 -0.065608189 0.0052345684 0.064693369 0.0051830416 0.064724639 0.99225217 -0.066156134
154758333.33333 0.99341601 -0.06586381 0.0052489722 0.064961605 0.0053099333 0.065115273 0.99263644 -0.066184297
155756666.66667 0.99340183 -0.066981733 0.0054130023 0.065468527 0.0053621987 0.065533035 0.99237531 -0.066814184
156755000 0.99325514 -0.066968486 0.0052701505 0.065973848 0.0052946513 0.066004276 0.99222881 -0.067287028
157753333.33333 0.99307555 -0.067512587 0.0053620674 0.066443637 0.0054007643 0.066308334 0.99200612 -0.067623489
158751666.66667 0.99330175 -0.067986213 0.00543008 0.066622242 0.005545896 0.066620819 0.9925313 -0.068010278
159750000 0.99309576 -0.068149209 0.0055416515 0.067095019 0.0055211601 0.067166381 0.99217659 -0.06841062
160748333.33333 0.99328279 -0.069058165 0.0055041946 0.067554779 0.0057328809 0.06762132 0.99187839 -0.069096982
161746666.66667 0.99313098 -0.069057308 0.0056747417 0.067816548 0.0057433466 0.068079099 0.99190968 -0.069711804
162745000 0.99273527 -0.069534093 0.0057062949 0.068408199 0.0058279955 0.068583228 0.99140733 -0.069576152
163743333.33333 0.99285173 -0.069800466 0.0057099834 0.068739422 0.0058064205 0.068952404 0.99166763 -0.069989301
164741666.66667 0.99237615 -0.070051238 0.0057382067 0.069261439 0.0059034373 0.069268845 0.9917888 -0.070929416
165740000 0.99296302 -0.070468239 0.0059978552 0.069699243 0.0058634919 0.069598749 0.9914822 -0.070898086
166738333.33333 0.992625 -0.071001247 0.0060024504 0.069988146 0.0059380461 0.06989751 0.99125552 -0.071184427
167736666.66667 0.99312538 -0.071291313 0.0061760917 0.070585743 0.0061618011 0.070677586 0.99169242 -0.07182233
168735000 0.99224693 -0.071621247 0.0062465137 0.07097777 0.0061790147 0.070953704 0.99156326 -0.072429277
169733333.33333 0.99193901 -0.072357059 0.0061429413 0.071308799 0.0063031991 0.071343392 0.99130565 -0.072436474
170731666.66667 0.9925139 -0.072847039 0.0063171182 0.07167159 0.0062156315 0.071873918 0.99128598 -0.07269112
171730000 0.99211967 -0.073151819 0.0063877786 0.072199717 0.0063316487 0.072143808 0.99123394 -0.073522374
172728333.33333 0.99233127 -0.073405527 0.0062667513 0.072526112 0.0065596262 0.072539277 0.99150169 -0.073928393
173726666.66667 0.99233752 -0.073909901 0.0065709637 0.072949715 0.0064774673 0.07291127 0.99150211 -0.074371763
174725000 0.9919945 -0.074625544 0.0065019121 0.073478855 0.0065492154 0.073459312 0.99113536 -0.074658364
175723333.33333 0.99176073 -0.075141326 0.0064650038 0.073666215 0.0065802564 0.07378041 0.99107689 -0.075217955
176721666.66667 0.99164444 -0.075461835 0.0066822721 0.07409706 0.0066890926 0.074212141 0.9908815 -0.07582321
177720000 0.99184656 -0.0756367 0.0067426623 0.074551098 0.0068094432 0.074627526 0.99116039 -0.075944968
178718333.33333 0.9919399 -0.076277308 0.0067264647 0.075111449 0.006855451 0.075008206 0.990794 -0.076207913
179716666.66667 0.99168843 -0.076389 0.0069216113 0.07532981 0.0069556269 0.075576149 0.99104595 -0.076573536
180715000 0.9915756 -0.077254675 0.0068904478 0.075954899 0.0070231715 0.07596489 0.9913246 -0.076877415
181713333.33333 0.99169582 -0.077308312 0.0070525655 0.076236986 0.0070288666 0.076276459 0.99086797 -0.077631101
182711666.66667 0.99132144 -0.077410705 0.0072645233 0.076627359 0.0071668196 0.076665774 0.99052572 -0.078037404
