! Created Sat Jun  4 15:42:15 2022
# mhz S ma R 50
! 1 Port Network Data from SP1.SP block
! freq  magS11  angS11  
!     
               100         1.0000021       -0.104722375
               101        1.00000212       -0.105771113
               102        1.00000214       -0.106819897
               103        1.00000216       -0.107868726
               104        1.00000218       -0.108917603
               105        1.00000221       -0.109966526
               106        1.00000223       -0.111015497
               107        1.00000225       -0.112064515
               108        1.00000227       -0.113113582
               109        1.00000229       -0.114162698
               110        1.00000231       -0.115211863
               111        1.00000234       -0.116261078
               112        1.00000236       -0.117310343
               113        1.00000238       -0.118359659
               114         1.0000024       -0.119409026
               115        1.00000242       -0.120458445
               116        1.00000245       -0.121507916
               117        1.00000247        -0.12255744
               118        1.00000249       -0.123607017
               119        1.00000251       -0.124656647
               120        1.00000253       -0.125706332
               121        1.00000256       -0.126756071
               122        1.00000258       -0.127805865
               123         1.0000026       -0.128855715
               124        1.00000262        -0.12990562
               125        1.00000264       -0.130955583
               126        1.00000267       -0.132005602
               127        1.00000269       -0.133055678
               128        1.00000271       -0.134105813
               129        1.00000273       -0.135156006
               130        1.00000275       -0.136206257
               131        1.00000278       -0.137256569
               132         1.0000028        -0.13830694
               133        1.00000282       -0.139357371
               134        1.00000284       -0.140407863
               135        1.00000287       -0.141458417
               136        1.00000289       -0.142509033
               137        1.00000291        -0.14355971
               138        1.00000293       -0.144610451
               139        1.00000295       -0.145661255
               140        1.00000298       -0.146712123
               141          1.000003       -0.147763055
               142        1.00000302       -0.148814051
               143        1.00000304       -0.149865113
               144        1.00000307       -0.150916241
               145        1.00000309       -0.151967435
               146        1.00000311       -0.153018696
               147        1.00000313       -0.154070024
               148        1.00000316        -0.15512142
               149        1.00000318       -0.156172884
               150         1.0000032       -0.157224417
               151        1.00000323       -0.158276019
               152        1.00000325       -0.159327691
               153        1.00000327       -0.160379433
               154        1.00000329       -0.161431246
               155        1.00000332        -0.16248313
               156        1.00000334       -0.163535086
               157        1.00000336       -0.164587115
               158        1.00000338       -0.165639216
               159        1.00000341        -0.16669139
               160        1.00000343       -0.167743638
               161        1.00000345        -0.16879596
               162        1.00000348       -0.169848358
               163         1.0000035        -0.17090083
               164        1.00000352       -0.171953379
               165        1.00000355       -0.173006004
               166        1.00000357       -0.174058705
               167        1.00000359       -0.175111484
               168        1.00000362       -0.176164341
               169        1.00000364       -0.177217277
               170        1.00000366       -0.178270291
               171        1.00000369       -0.179323385
               172        1.00000371       -0.180376559
               173        1.00000373       -0.181429813
               174        1.00000376       -0.182483148
               175        1.00000378       -0.183536565
               176         1.0000038       -0.184590064
               177        1.00000383       -0.185643645
               178        1.00000385        -0.18669731
               179        1.00000387       -0.187751058
               180         1.0000039        -0.18880489
               181        1.00000392       -0.189858807
               182        1.00000394        -0.19091281
               183        1.00000397       -0.191966898
               184        1.00000399       -0.193021072
               185        1.00000401       -0.194075333
               186        1.00000404       -0.195129681
               187        1.00000406       -0.196184118
               188        1.00000409       -0.197238643
               189        1.00000411       -0.198293256
               190        1.00000413        -0.19934796
               191        1.00000416       -0.200402753
               192        1.00000418       -0.201457637
               193        1.00000421       -0.202512612
               194        1.00000423       -0.203567678
               195        1.00000425       -0.204622837
               196        1.00000428       -0.205678088
               197         1.0000043       -0.206733433
               198        1.00000433       -0.207788872
               199        1.00000435       -0.208844405
               200        1.00000438       -0.209900033
               201         1.0000044       -0.210955756
               202        1.00000442       -0.212011576
               203        1.00000445       -0.213067492
               204        1.00000447       -0.214123505
               205         1.0000045       -0.215179616
               206        1.00000452       -0.216235825
               207        1.00000455       -0.217292133
               208        1.00000457        -0.21834854
               209         1.0000046       -0.219405048
               210        1.00000462       -0.220461655
               211        1.00000465       -0.221518364
               212        1.00000467       -0.222575174
               213        1.00000469       -0.223632087
               214        1.00000472       -0.224689102
               215        1.00000474       -0.225746221
               216        1.00000477       -0.226803443
               217        1.00000479        -0.22786077
               218        1.00000482       -0.228918202
               219        1.00000484        -0.22997574
               220        1.00000487       -0.231033383
               221         1.0000049       -0.232091134
               222        1.00000492       -0.233148992
               223        1.00000495       -0.234206957
               224        1.00000497       -0.235265031
               225          1.000005       -0.236323214
               226        1.00000502       -0.237381507
               227        1.00000505        -0.23843991
               228        1.00000507       -0.239498424
               229         1.0000051       -0.240557049
               230        1.00000512       -0.241615786
               231        1.00000515       -0.242674636
               232        1.00000517       -0.243733599
               233         1.0000052       -0.244792675
               234        1.00000523       -0.245851866
               235        1.00000525       -0.246911172
               236        1.00000528       -0.247970594
               237         1.0000053       -0.249030131
               238        1.00000533       -0.250089785
               239        1.00000536       -0.251149557
               240        1.00000538       -0.252209446
               241        1.00000541       -0.253269454
               242        1.00000543       -0.254329582
               243        1.00000546       -0.255389828
               244        1.00000549       -0.256450196
               245        1.00000551       -0.257510684
               246        1.00000554       -0.258571294
               247        1.00000557       -0.259632025
               248        1.00000559        -0.26069288
               249        1.00000562       -0.261753858
               250        1.00000565        -0.26281496
               251        1.00000567       -0.263876187
               252         1.0000057       -0.264937539
               253        1.00000573       -0.265999017
               254        1.00000575       -0.267060622
               255        1.00000578       -0.268122353
               256        1.00000581       -0.269184213
               257        1.00000583         -0.2702462
               258        1.00000586       -0.271308317
               259        1.00000589       -0.272370563
               260        1.00000591        -0.27343294
               261        1.00000594       -0.274495448
               262        1.00000597       -0.275558087
               263          1.000006       -0.276620858
               264        1.00000602       -0.277683762
               265        1.00000605         -0.2787468
               266        1.00000608       -0.279809972
               267         1.0000061       -0.280873278
               268        1.00000613        -0.28193672
               269        1.00000616       -0.283000298
               270        1.00000619       -0.284064013
               271        1.00000622       -0.285127865
               272        1.00000624       -0.286191855
               273        1.00000627       -0.287255984
               274         1.0000063       -0.288320252
               275        1.00000633        -0.28938466
               276        1.00000635       -0.290449209
               277        1.00000638       -0.291513899
               278        1.00000641       -0.292578731
               279        1.00000644       -0.293643706
               280        1.00000647       -0.294708824
               281         1.0000065       -0.295774086
               282        1.00000652       -0.296839492
               283        1.00000655       -0.297905044
               284        1.00000658       -0.298970742
               285        1.00000661       -0.300036587
               286        1.00000664       -0.301102579
               287        1.00000667       -0.302168719
               288         1.0000067       -0.303235008
               289        1.00000672       -0.304301447
               290        1.00000675       -0.305368035
               291        1.00000678       -0.306434774
               292        1.00000681       -0.307501665
               293        1.00000684       -0.308568708
               294        1.00000687       -0.309635904
               295         1.0000069       -0.310703253
               296        1.00000693       -0.311770757
               297        1.00000696       -0.312838416
               298        1.00000699        -0.31390623
               299        1.00000702       -0.314974201
               300        1.00000705       -0.316042329
               301        1.00000707       -0.317110615
               302         1.0000071       -0.318179059
               303        1.00000713       -0.319247663
               304        1.00000716       -0.320316426
               305        1.00000719       -0.321385351
               306        1.00000722       -0.322454436
               307        1.00000725       -0.323523684
               308        1.00000728       -0.324593095
               309        1.00000731       -0.325662669
               310        1.00000734       -0.326732408
               311        1.00000737       -0.327802311
               312         1.0000074       -0.328872381
               313        1.00000744       -0.329942617
               314        1.00000747        -0.33101302
               315         1.0000075       -0.332083591
               316        1.00000753       -0.333154331
               317        1.00000756       -0.334225241
               318        1.00000759       -0.335296321
               319        1.00000762       -0.336367572
               320        1.00000765       -0.337438994
               321        1.00000768       -0.338510589
               322        1.00000771       -0.339582358
               323        1.00000774         -0.3406543
               324        1.00000777       -0.341726417
               325        1.00000781        -0.34279871
               326        1.00000784       -0.343871179
               327        1.00000787       -0.344943826
               328         1.0000079        -0.34601665
               329        1.00000793       -0.347089653
               330        1.00000796       -0.348162835
               331          1.000008       -0.349236197
               332        1.00000803       -0.350309741
               333        1.00000806       -0.351383466
               334        1.00000809       -0.352457374
               335        1.00000812       -0.353531466
               336        1.00000816       -0.354605741
               337        1.00000819       -0.355680201
               338        1.00000822       -0.356754848
               339        1.00000825        -0.35782968
               340        1.00000829         -0.3589047
               341        1.00000832       -0.359979909
               342        1.00000835       -0.361055306
               343        1.00000838       -0.362130893
               344        1.00000842       -0.363206671
               345        1.00000845        -0.36428264
               346        1.00000848       -0.365358801
               347        1.00000852       -0.366435156
               348        1.00000855       -0.367511704
               349        1.00000858       -0.368588448
               350        1.00000862       -0.369665386
               351        1.00000865       -0.370742521
               352        1.00000868       -0.371819854
               353        1.00000872       -0.372897384
               354        1.00000875       -0.373975114
               355        1.00000878       -0.375053043
               356        1.00000882       -0.376131173
               357        1.00000885       -0.377209504
               358        1.00000889       -0.378288038
               359        1.00000892       -0.379366775
               360        1.00000895       -0.380445715
               361        1.00000899       -0.381524861
               362        1.00000902       -0.382604213
               363        1.00000906       -0.383683771
               364        1.00000909       -0.384763537
               365        1.00000913       -0.385843511
               366        1.00000916       -0.386923694
               367         1.0000092       -0.388004088
               368        1.00000923       -0.389084693
               369        1.00000927       -0.390165509
               370         1.0000093       -0.391246539
               371        1.00000934       -0.392327782
               372        1.00000937        -0.39340924
               373        1.00000941       -0.394490913
               374        1.00000944       -0.395572803
               375        1.00000948        -0.39665491
               376        1.00000951       -0.397737236
               377        1.00000955        -0.39881978
               378        1.00000959       -0.399902545
               379        1.00000962       -0.400985531
               380        1.00000966       -0.402068738
               381         1.0000097       -0.403152169
               382        1.00000973       -0.404235823
               383        1.00000977       -0.405319702
               384         1.0000098       -0.406403807
               385        1.00000984       -0.407488138
               386        1.00000988       -0.408572697
               387        1.00000992       -0.409657485
               388        1.00000995       -0.410742502
               389        1.00000999       -0.411827749
               390        1.00001003       -0.412913228
               391        1.00001006       -0.413998939
               392         1.0000101       -0.415084883
               393        1.00001014       -0.416171061
               394        1.00001018       -0.417257475
               395        1.00001021       -0.418344125
               396        1.00001025       -0.419431013
               397        1.00001029       -0.420518138
               398        1.00001033       -0.421605503
               399        1.00001037       -0.422693108
               400        1.00001041       -0.423780954
               401        1.00001044       -0.424869042
               402        1.00001048       -0.425957373
               403        1.00001052       -0.427045949
               404        1.00001056        -0.42813477
               405         1.0000106       -0.429223836
               406        1.00001064       -0.430313151
               407        1.00001068       -0.431402713
               408        1.00001072       -0.432492525
               409        1.00001076       -0.433582587
               410        1.00001079         -0.4346729
               411        1.00001083       -0.435763466
               412        1.00001087       -0.436854285
               413        1.00001091       -0.437945359
               414        1.00001095       -0.439036688
               415        1.00001099       -0.440128274
               416        1.00001103       -0.441220117
               417        1.00001107       -0.442312219
               418        1.00001112       -0.443404581
               419        1.00001116       -0.444497204
               420         1.0000112       -0.445590088
               421        1.00001124       -0.446683236
               422        1.00001128       -0.447776648
               423        1.00001132       -0.448870325
               424        1.00001136       -0.449964268
               425         1.0000114       -0.451058478
               426        1.00001144       -0.452152957
               427        1.00001149       -0.453247706
               428        1.00001153       -0.454342725
               429        1.00001157       -0.455438016
               430        1.00001161        -0.45653358
               431        1.00001165       -0.457629418
               432         1.0000117       -0.458725531
               433        1.00001174       -0.459821921
               434        1.00001178       -0.460918588
               435        1.00001182       -0.462015533
               436        1.00001187       -0.463112758
               437        1.00001191       -0.464210264
               438        1.00001195       -0.465308053
               439        1.00001199       -0.466406124
               440        1.00001204        -0.46750448
               441        1.00001208       -0.468603121
               442        1.00001213       -0.469702049
               443        1.00001217       -0.470801265
               444        1.00001221        -0.47190077
               445        1.00001226       -0.473000565
               446         1.0000123       -0.474100652
               447        1.00001235       -0.475201031
